Time,I(Le),I(L),Vc
1e-006,0.166577,-0.0149799,0.00272353
2e-006,0.333028,-0.0299314,0.00907591
3e-006,0.499382,-0.0448605,0.0181479
4e-006,0.665602,-0.0597586,0.030844
5e-006,0.831682,-0.0746239,0.0471606
6e-006,0.997617,-0.0894547,0.0670944
7e-006,1.1634,-0.104249,0.0906416
8e-006,1.32902,-0.119005,0.117798
9e-006,1.49449,-0.133722,0.148561
1e-005,1.65978,-0.148397,0.182925
1.1e-005,1.82489,-0.163028,0.220886
1.2e-005,1.98983,-0.177614,0.262439
1.3e-005,2.15458,-0.192154,0.307581
1.4e-005,2.31913,-0.206644,0.356306
1.5e-005,2.48349,-0.221085,0.40861
1.6e-005,2.64764,-0.235473,0.464487
1.7e-005,2.81159,-0.249807,0.523932
1.8e-005,2.97531,-0.264086,0.58694
1.9e-005,3.13882,-0.278307,0.653505
2e-005,3.30209,-0.29247,0.723622
2.1e-005,3.46514,-0.306571,0.797284
2.2e-005,3.62794,-0.320611,0.874487
2.3e-005,3.7905,-0.334586,0.955223
2.4e-005,3.95281,-0.348495,1.03949
2.5e-005,4.11487,-0.362337,1.12727
2.6e-005,4.27666,-0.376109,1.21857
2.7e-005,4.43818,-0.389811,1.31338
2.8e-005,4.59943,-0.40344,1.41169
2.9e-005,4.7604,-0.416994,1.51349
3e-005,4.92109,-0.430473,1.61878
3.1e-005,5.08149,-0.443874,1.72755
3.2e-005,5.24159,-0.457195,1.83979
3.3e-005,5.40139,-0.470436,1.9555
3.4e-005,5.56089,-0.483594,2.07466
3.5e-005,5.72007,-0.496668,2.19727
3.6e-005,5.87894,-0.509656,2.32333
3.7e-005,6.03748,-0.522557,2.45281
3.8e-005,6.19569,-0.535368,2.58572
3.9e-005,6.35357,-0.548089,2.72205
4e-005,6.51111,-0.560717,2.86179
4.1e-005,6.66831,-0.573251,3.00492
4.2e-005,6.82516,-0.585689,3.15144
4.3e-005,6.98165,-0.598031,3.30135
4.4e-005,7.13777,-0.610273,3.45463
4.5e-005,7.29354,-0.622415,3.61127
4.6e-005,7.44893,-0.634456,3.77126
4.7e-005,7.60394,-0.646392,3.9346
4.8e-005,7.75857,-0.658224,4.10127
4.9e-005,7.91282,-0.669949,4.27126
5e-005,8.06667,-0.681565,4.44457
5.1e-005,8.22012,-0.693072,4.62119
5.2e-005,8.37317,-0.704468,4.8011
5.3e-005,8.52582,-0.71575,4.98429
5.4e-005,8.67805,-0.726918,5.17075
5.5e-005,8.82986,-0.737971,5.36048
5.6e-005,8.98124,-0.748906,5.55346
5.7e-005,9.1322,-0.759722,5.74968
5.8e-005,9.28273,-0.770417,5.94913
5.9e-005,9.43281,-0.780991,6.1518
6e-005,9.58245,-0.791441,6.35768
6.1e-005,9.73165,-0.801766,6.56675
6.2e-005,9.88038,-0.811965,6.77901
6.3e-005,10.0287,-0.822036,6.99444
6.4e-005,10.1765,-0.831977,7.21303
6.5e-005,10.3238,-0.841788,7.43477
6.6e-005,10.4707,-0.851467,7.65965
6.7e-005,10.6171,-0.861012,7.88765
6.8e-005,10.763,-0.870422,8.11877
6.9e-005,10.9084,-0.879696,8.35298
7e-005,11.0534,-0.888831,8.59029
7.1e-005,11.1978,-0.897827,8.83067
7.2e-005,11.3417,-0.906683,9.07411
7.3e-005,11.4852,-0.915396,9.3206
7.4e-005,11.6281,-0.923966,9.57012
7.5e-005,11.7705,-0.932391,9.82267
7.6e-005,11.9123,-0.94067,10.0782
7.7e-005,12.0537,-0.948801,10.3368
7.8e-005,12.1945,-0.956783,10.5983
7.9e-005,12.3348,-0.964615,10.8628
8e-005,12.4745,-0.972295,11.1303
8.1e-005,12.6138,-0.979822,11.4007
8.2e-005,12.7524,-0.987195,11.674
8.3e-005,12.8905,-0.994412,11.9503
8.4e-005,13.0281,-1.00147,12.2294
8.5e-005,13.165,-1.00837,12.5114
8.6e-005,13.3015,-1.01512,12.7963
8.7e-005,13.4373,-1.0217,13.0841
8.8e-005,13.5726,-1.02812,13.3747
8.9e-005,13.7073,-1.03438,13.6681
9e-005,13.8414,-1.04047,13.9644
9.1e-005,13.9749,-1.04639,14.2634
9.2e-005,14.1078,-1.05215,14.5652
9.3e-005,14.2402,-1.05774,14.8698
9.4e-005,14.3719,-1.06317,15.1771
9.5e-005,14.503,-1.06842,15.4872
9.6e-005,14.6336,-1.07349,15.8
9.7e-005,14.7635,-1.0784,16.1154
9.8e-005,14.8928,-1.08313,16.4336
9.9e-005,15.0215,-1.08769,16.7545
0.0001,15.1495,-1.09207,17.078
0.000101,15.2769,-1.09627,17.4041
0.000102,15.4037,-1.10029,17.7329
0.000103,15.5299,-1.10413,18.0643
0.000104,15.6554,-1.1078,18.3983
0.000105,15.7803,-1.11128,18.7348
0.000106,15.9045,-1.11457,19.0739
0.000107,16.0281,-1.11768,19.4156
0.000108,16.151,-1.12061,19.7597
0.000109,16.2733,-1.12335,20.1064
0.00011,16.3949,-1.1259,20.4556
0.000111,16.5158,-1.12826,20.8072
0.000112,16.6361,-1.13043,21.1613
0.000113,16.7557,-1.13242,21.5179
0.000114,16.8746,-1.13421,21.8769
0.000115,16.9928,-1.1358,22.2382
0.000116,17.1104,-1.1372,22.602
0.000117,17.2272,-1.13841,22.9681
0.000118,17.3434,-1.13942,23.3366
0.000119,17.4589,-1.14024,23.7074
0.00012,17.5737,-1.14086,24.0806
0.000121,17.6878,-1.14127,24.456
0.000122,17.8011,-1.14149,24.8337
0.000123,17.9138,-1.14151,25.2137
0.000124,18.0258,-1.14133,25.5959
0.000125,18.137,-1.14094,25.9804
0.000126,18.2476,-1.14035,26.367
0.000127,18.3574,-1.13955,26.7559
0.000128,18.4665,-1.13855,27.1469
0.000129,18.5748,-1.13735,27.5401
0.00013,18.6825,-1.13593,27.9354
0.000131,18.7894,-1.13431,28.3328
0.000132,18.8956,-1.13248,28.7323
0.000133,19.001,-1.13044,29.1339
0.000134,19.1057,-1.12819,29.5376
0.000135,19.2096,-1.12573,29.9433
0.000136,19.3128,-1.12305,30.351
0.000137,19.4153,-1.12017,30.7607
0.000138,19.517,-1.11707,31.1724
0.000139,19.618,-1.11375,31.586
0.00014,19.7182,-1.11022,32.0016
0.000141,19.8176,-1.10647,32.4192
0.000142,19.9163,-1.10251,32.8386
0.000143,20.0142,-1.09833,33.2599
0.000144,20.1113,-1.09393,33.6831
0.000145,20.2077,-1.08931,34.1081
0.000146,20.3033,-1.08447,34.5349
0.000147,20.3981,-1.07941,34.9636
0.000148,20.4921,-1.07413,35.394
0.000149,20.5854,-1.06863,35.8262
0.00015,20.6779,-1.0629,36.2602
0.000151,20.7696,-1.05696,36.6959
0.000152,20.8605,-1.05079,37.1332
0.000153,20.9506,-1.04439,37.5723
0.000154,21.04,-1.03777,38.013
0.000155,21.1285,-1.03092,38.4554
0.000156,21.2163,-1.02385,38.8994
0.000157,21.3032,-1.01655,39.345
0.000158,21.3894,-1.00903,39.7922
0.000159,21.4747,-1.00127,40.2409
0.00016,21.5593,-0.993288,40.6912
0.000161,21.643,-0.985076,41.143
0.000162,21.7259,-0.976634,41.5963
0.000163,21.8081,-0.967963,42.0511
0.000164,21.8894,-0.95906,42.5073
0.000165,21.9699,-0.949926,42.965
0.000166,22.0496,-0.940561,43.4241
0.000167,22.1284,-0.930963,43.8846
0.000168,22.2065,-0.921133,44.3465
0.000169,22.2837,-0.91107,44.8097
0.00017,22.3601,-0.900773,45.2743
0.000171,22.4357,-0.890242,45.7401
0.000172,22.5105,-0.879477,46.2073
0.000173,22.5844,-0.868477,46.6757
0.000174,22.6575,-0.857242,47.1454
0.000175,22.7298,-0.845772,47.6163
0.000176,22.8013,-0.834065,48.0884
0.000177,22.8719,-0.822122,48.5617
0.000178,22.9417,-0.809942,49.0362
0.000179,23.0107,-0.797525,49.5118
0.00018,23.0788,-0.784871,49.9885
0.000181,23.1461,-0.771979,50.4663
0.000182,23.2125,-0.758849,50.9452
0.000183,23.2781,-0.74548,51.4252
0.000184,23.3429,-0.731873,51.9061
0.000185,23.4068,-0.718027,52.3881
0.000186,23.4699,-0.703942,52.8711
0.000187,23.5322,-0.689617,53.3551
0.000188,23.5936,-0.675053,53.84
0.000189,23.6541,-0.660249,54.3258
0.00019,23.7138,-0.645204,54.8125
0.000191,23.7727,-0.629919,55.3002
0.000192,23.8307,-0.614393,55.7886
0.000193,23.8879,-0.598627,56.278
0.000194,23.9442,-0.582619,56.7681
0.000195,23.9997,-0.566371,57.259
0.000196,24.0543,-0.549881,57.7507
0.000197,24.1081,-0.533149,58.2432
0.000198,24.161,-0.516176,58.7364
0.000199,24.2131,-0.498961,59.2302
0.0002,24.2643,-0.481504,59.7248
0.000201,24.3146,-0.463805,60.2201
0.000202,24.3641,-0.445865,60.7159
0.000203,24.4128,-0.427682,61.2125
0.000204,24.4606,-0.409256,61.7096
0.000205,24.5075,-0.390589,62.2072
0.000206,24.5536,-0.371679,62.7055
0.000207,24.5989,-0.352527,63.2042
0.000208,24.6433,-0.333132,63.7035
0.000209,24.6868,-0.313495,64.2033
0.00021,24.7295,-0.293615,64.7035
0.000211,24.7713,-0.273493,65.2042
0.000212,24.8122,-0.253128,65.7053
0.000213,24.8523,-0.232521,66.2068
0.000214,24.8916,-0.211672,66.7087
0.000215,24.93,-0.19058,67.2109
0.000216,24.9675,-0.169246,67.7135
0.000217,25.0042,-0.14767,68.2164
0.000218,25.04,-0.125852,68.7196
0.000219,25.075,-0.103792,69.223
0.00022,25.1091,-0.0814896,69.7267
0.000221,25.1424,-0.0589456,70.2306
0.000222,25.1748,-0.0361599,70.7347
0.000223,25.2063,-0.0131326,71.239
0.000224,25.2368,0.0101955,71.7435
0.000225,25.2665,0.0337656,72.2482
0.000226,25.2954,0.0575166,72.7529
0.000227,25.3236,0.0815085,73.2577
0.000228,25.3509,0.105741,73.7625
0.000229,25.3773,0.130214,74.2675
0.00023,25.4029,0.154928,74.7724
0.000231,25.4276,0.179881,75.2774
0.000232,25.4515,0.205075,75.7823
0.000233,25.4746,0.230508,76.2872
0.000234,25.4968,0.25618,76.7921
0.000235,25.5181,0.282091,77.2968
0.000236,25.5386,0.308242,77.8015
0.000237,25.5583,0.334631,78.306
0.000238,25.5771,0.361258,78.8104
0.000239,25.595,0.388123,79.3147
0.00024,25.6121,0.415225,79.8187
0.000241,25.6284,0.442565,80.3225
0.000242,25.6439,0.470142,80.8261
0.000243,25.6585,0.497956,81.3295
0.000244,25.6722,0.526006,81.8325
0.000245,25.6851,0.554292,82.3353
0.000246,25.6972,0.582813,82.8377
0.000247,25.7085,0.611569,83.3399
0.000248,25.7189,0.64056,83.8416
0.000249,25.7285,0.669786,84.343
0.00025,25.7372,0.699245,84.8439
0.000251,25.7451,0.728938,85.3445
0.000252,25.7522,0.758863,85.8446
0.000253,25.7585,0.789022,86.3442
0.000254,25.7639,0.819412,86.8433
0.000255,25.7685,0.850034,87.342
0.000256,25.7723,0.880888,87.8401
0.000257,25.7753,0.911972,88.3376
0.000258,25.7774,0.943286,88.8346
0.000259,25.7788,0.97483,89.331
0.00026,25.7793,1.0066,89.8267
0.000261,25.779,1.0386,90.3219
0.000262,25.7779,1.07083,90.8164
0.000263,25.7759,1.10329,91.3101
0.000264,25.7732,1.13597,91.8032
0.000265,25.7697,1.16888,92.2956
0.000266,25.7653,1.20202,92.7873
0.000267,25.7602,1.23538,93.2781
0.000268,25.7542,1.26897,93.7682
0.000269,25.7474,1.30278,94.2575
0.00027,25.7399,1.33681,94.746
0.000271,25.7308,1.32115,95.2607
0.000272,25.7209,1.30549,95.7752
0.000273,25.7104,1.28985,96.2895
0.000274,25.699,1.2742,96.8036
0.000275,25.6868,1.25857,97.3174
0.000276,25.6737,1.24295,97.831
0.000277,25.6598,1.22733,98.3444
0.000278,25.645,1.21172,98.8574
0.000279,25.6294,1.19612,99.3702
0.00028,25.613,1.18052,99.8826
0.000281,25.5957,1.16494,100.395
0.000282,25.5775,1.14936,100.906
0.000283,25.5585,1.13379,101.418
0.000284,25.5387,1.11822,101.929
0.000285,25.518,1.10267,102.439
0.000286,25.4966,1.08712,102.949
0.000287,25.4742,1.07158,103.459
0.000288,25.4511,1.05605,103.968
0.000289,25.4271,1.04053,104.477
0.00029,25.4022,1.02501,104.985
0.000291,25.3766,1.0095,105.493
0.000292,25.3501,0.994,106.001
0.000293,25.3228,0.978507,106.507
0.000294,25.2946,0.963021,107.013
0.000295,25.2657,0.947544,107.519
0.000296,25.2359,0.932074,108.024
0.000297,25.2053,0.916611,108.528
0.000298,25.1738,0.901157,109.032
0.000299,25.1416,0.88571,109.535
0.0003,25.1085,0.870271,110.038
0.000301,25.0747,0.85484,110.54
0.000302,25.04,0.839416,111.041
0.000303,25.0045,0.824001,111.541
0.000304,24.9682,0.808592,112.041
0.000305,24.931,0.793192,112.54
0.000306,24.8931,0.777799,113.038
0.000307,24.8544,0.762414,113.536
0.000308,24.8149,0.747037,114.032
0.000309,24.7745,0.731667,114.528
0.00031,24.7334,0.716305,115.023
0.000311,24.6915,0.700951,115.518
0.000312,24.6488,0.685604,116.011
0.000313,24.6052,0.670265,116.504
0.000314,24.5609,0.654934,116.995
0.000315,24.5159,0.63961,117.486
0.000316,24.47,0.624294,117.976
0.000317,24.4233,0.608986,118.465
0.000318,24.3759,0.593685,118.953
0.000319,24.3276,0.578392,119.44
0.00032,24.2786,0.563107,119.926
0.000321,24.2288,0.547829,120.411
0.000322,24.1783,0.532559,120.895
0.000323,24.127,0.517297,121.378
0.000324,24.0749,0.502042,121.86
0.000325,24.022,0.486795,122.341
0.000326,23.9684,0.471555,122.821
0.000327,23.914,0.456323,123.3
0.000328,23.8588,0.441099,123.778
0.000329,23.8029,0.425882,124.254
0.00033,23.7462,0.410673,124.73
0.000331,23.6884,0.460434,125.217
0.000332,23.7437,0.476238,119.488
0.000333,23.695,0.52322,119.952
0.000334,23.6457,0.570351,120.414
0.000335,23.5958,0.617678,120.875
0.000336,23.5451,0.665203,121.333
0.000337,23.4937,0.712922,121.79
0.000338,23.4416,0.760835,122.244
0.000339,23.3888,0.808941,122.697
0.00034,23.3353,0.857238,123.148
0.000341,23.2811,0.905726,123.596
0.000342,23.2262,0.954403,124.043
0.000343,23.1706,1.00327,124.487
0.000344,23.1144,1.05232,124.929
0.000345,23.0574,1.10156,125.369
0.000346,22.9998,1.15098,125.808
0.000347,22.9415,1.20058,126.243
0.000348,22.8825,1.25037,126.677
0.000349,22.8229,1.30034,127.109
0.00035,22.7626,1.35048,127.538
0.000351,22.7017,1.4008,127.965
0.000352,22.6401,1.4513,128.39
0.000353,22.5778,1.50198,128.813
0.000354,22.5149,1.55283,129.233
0.000355,22.4514,1.60385,129.651
0.000356,22.3872,1.65505,130.067
0.000357,22.3224,1.70641,130.48
0.000358,22.257,1.75794,130.892
0.000359,22.191,1.80964,131.3
0.00036,22.1243,1.86151,131.707
0.000361,22.057,1.91354,132.111
0.000362,21.9891,1.96573,132.513
0.000363,21.9206,2.01809,132.912
0.000364,21.8515,2.07061,133.309
0.000365,21.7818,2.12328,133.703
0.000366,21.7116,2.17612,134.095
0.000367,21.6407,2.22911,134.484
0.000368,21.5692,2.28226,134.871
0.000369,21.4972,2.33556,135.256
0.00037,21.4246,2.38901,135.638
0.000371,21.3515,2.44261,136.017
0.000372,21.2777,2.49636,136.394
0.000373,21.2034,2.55026,136.769
0.000374,21.1286,2.60431,137.14
0.000375,21.0532,2.6585,137.51
0.000376,20.9773,2.71284,137.876
0.000377,20.9008,2.76732,138.24
0.000378,20.8238,2.82194,138.602
0.000379,20.7462,2.8767,138.96
0.00038,20.6682,2.9316,139.316
0.000381,20.5896,2.98663,139.67
0.000382,20.5105,3.0418,140.02
0.000383,20.4309,3.0971,140.368
0.000384,20.3507,3.15254,140.714
0.000385,20.2701,3.2081,141.056
0.000386,20.189,3.2638,141.396
0.000387,20.1074,3.31962,141.733
0.000388,20.0253,3.37557,142.068
0.000389,19.9427,3.43164,142.399
0.00039,19.8597,3.48784,142.728
0.000391,19.7761,3.54415,143.054
0.000392,19.6922,3.60059,143.377
0.000393,19.6077,3.65715,143.698
0.000394,19.5228,3.71382,144.015
0.000395,19.4374,3.77061,144.33
0.000396,19.3516,3.82751,144.642
0.000397,19.2654,3.88453,144.951
0.000398,19.1787,3.94166,145.257
0.000399,19.0916,3.99889,145.561
0.0004,19.004,4.05624,145.861
0.000401,18.9161,4.11369,146.159
0.000402,18.8277,4.17124,146.453
0.000403,18.7389,4.2289,146.745
0.000404,18.6497,4.28666,147.034
0.000405,18.5601,4.34452,147.319
0.000406,18.4701,4.40247,147.602
0.000407,18.3798,4.46053,147.882
0.000408,18.289,4.51868,148.159
0.000409,18.1979,4.57692,148.433
0.00041,18.1063,4.63526,148.704
0.000411,18.0145,4.69368,148.972
0.000412,17.9222,4.7522,149.237
0.000413,17.8296,4.8108,149.498
0.000414,17.7367,4.86949,149.757
0.000415,17.6434,4.92826,150.013
0.000416,17.5497,4.98712,150.266
0.000417,17.4557,5.04605,150.516
0.000418,17.3614,5.10507,150.762
0.000419,17.2668,5.16416,151.006
0.00042,17.1718,5.22333,151.246
0.000421,17.0766,5.28257,151.484
0.000422,16.981,5.34189,151.718
0.000423,16.8851,5.40128,151.949
0.000424,16.7889,5.46073,152.178
0.000425,16.6924,5.52026,152.403
0.000426,16.5956,5.57985,152.624
0.000427,16.4986,5.6395,152.843
0.000428,16.4013,5.69922,153.059
0.000429,16.3037,5.759,153.271
0.00043,16.2058,5.81884,153.481
0.000431,16.1077,5.87874,153.687
0.000432,16.0093,5.9387,153.89
0.000433,15.9107,5.99871,154.09
0.000434,15.8118,6.05877,154.286
0.000435,15.7127,6.11888,154.48
0.000436,15.6133,6.17905,154.67
0.000437,15.5137,6.23926,154.857
0.000438,15.4139,6.29952,155.041
0.000439,15.3139,6.35982,155.222
0.00044,15.2137,6.42017,155.399
0.000441,15.1132,6.48056,155.573
0.000442,15.0126,6.54099,155.744
0.000443,14.9118,6.60146,155.912
0.000444,14.8108,6.66196,156.077
0.000445,14.7096,6.7225,156.238
0.000446,14.6082,6.78307,156.396
0.000447,14.5066,6.84368,156.551
0.000448,14.4049,6.90431,156.703
0.000449,14.303,6.96497,156.851
0.00045,14.201,7.02566,156.996
0.000451,14.0988,7.08638,157.138
0.000452,13.9964,7.14712,157.277
0.000453,13.894,7.20788,157.412
0.000454,13.7913,7.26866,157.544
0.000455,13.6886,7.32946,157.673
0.000456,13.5857,7.39027,157.799
0.000457,13.4828,7.4511,157.921
0.000458,13.3797,7.51195,158.04
0.000459,13.2765,7.5728,158.156
0.00046,13.1732,7.63367,158.268
0.000461,13.0698,7.69455,158.377
0.000462,12.9663,7.75543,158.483
0.000463,12.8627,7.81631,158.586
0.000464,12.759,7.87721,158.685
0.000465,12.6553,7.9381,158.781
0.000466,12.5515,7.99899,158.874
0.000467,12.4477,8.05988,158.963
0.000468,12.3438,8.12077,159.049
0.000469,12.2398,8.18165,159.132
0.00047,12.1358,8.24253,159.211
0.000471,12.0288,8.22342,159.452
0.000472,11.9214,8.20431,159.691
0.000473,11.8138,8.18521,159.929
0.000474,11.7059,8.16613,160.164
0.000475,11.5977,8.14705,160.397
0.000476,11.4891,8.12798,160.628
0.000477,11.3803,8.10892,160.857
0.000478,11.2711,8.08987,161.083
0.000479,11.1616,8.07083,161.307
0.00048,11.0519,8.0518,161.53
0.000481,10.9418,8.03278,161.749
0.000482,10.8314,8.01377,161.967
0.000483,10.7208,7.99476,162.183
0.000484,10.6099,7.97577,162.396
0.000485,10.4987,7.95679,162.607
0.000486,10.3872,7.93782,162.816
0.000487,10.2754,7.91885,163.023
0.000488,10.1634,7.8999,163.227
0.000489,10.0511,7.88095,163.429
0.00049,9.93858,7.86202,163.629
0.000491,9.82578,7.84309,163.827
0.000492,9.71273,7.82417,164.022
0.000493,9.59943,7.80526,164.215
0.000494,9.48588,7.78637,164.406
0.000495,9.37209,7.76748,164.595
0.000496,9.25807,7.7486,164.781
0.000497,9.14381,7.72973,164.965
0.000498,9.02933,7.71087,165.147
0.000499,8.91462,7.69202,165.326
0.0005,8.79969,7.67318,165.503
0.000501,8.68455,7.65435,165.678
0.000502,8.56919,7.63552,165.851
0.000503,8.45362,7.61671,166.021
0.000504,8.33785,7.59791,166.189
0.000505,8.22188,7.57911,166.354
0.000506,8.10571,7.56033,166.518
0.000507,7.98934,7.54155,166.679
0.000508,7.87279,7.52279,166.837
0.000509,7.75606,7.50403,166.994
0.00051,7.63914,7.48528,167.147
0.000511,7.52205,7.46654,167.299
0.000512,7.40479,7.44781,167.448
0.000513,7.28735,7.4291,167.595
0.000514,7.16975,7.41039,167.74
0.000515,7.05199,7.39168,167.882
0.000516,6.93408,7.37299,168.022
0.000517,6.81601,7.35431,168.159
0.000518,6.6978,7.33564,168.295
0.000519,6.57943,7.31698,168.427
0.00052,6.46093,7.29832,168.558
0.000521,6.3423,7.27968,168.686
0.000522,6.22353,7.26104,168.811
0.000523,6.10463,7.24242,168.935
0.000524,5.98561,7.2238,169.056
0.000525,5.86646,7.20519,169.174
0.000526,5.74721,7.18659,169.29
0.000527,5.62784,7.16801,169.404
0.000528,5.50836,7.14943,169.515
0.000529,5.38878,7.13086,169.624
0.00053,5.26909,7.1123,169.731
0.000531,5.15131,7.17853,169.722
0.000532,5.03365,7.24471,169.709
0.000533,4.91609,7.31084,169.693
0.000534,4.79865,7.37692,169.674
0.000535,4.68135,7.44293,169.651
0.000536,4.56419,7.50887,169.624
0.000537,4.44718,7.57476,169.594
0.000538,4.33032,7.64057,169.56
0.000539,4.21362,7.70632,169.522
0.00054,4.09709,7.77199,169.481
0.000541,3.98073,7.83759,169.436
0.000542,3.86454,7.90312,169.388
0.000543,3.74854,7.96857,169.335
0.000544,3.63273,8.03395,169.28
0.000545,3.51711,8.09924,169.22
0.000546,3.4017,8.16445,169.157
0.000547,3.28649,8.22958,169.09
0.000548,3.17149,8.29463,169.02
0.000549,3.05672,8.35959,168.946
0.00055,2.94216,8.42446,168.868
0.000551,2.82784,8.48924,168.787
0.000552,2.71376,8.55392,168.702
0.000553,2.59991,8.61852,168.614
0.000554,2.48632,8.68302,168.522
0.000555,2.37297,8.74742,168.427
0.000556,2.25989,8.81172,168.328
0.000557,2.14707,8.87592,168.225
0.000558,2.03453,8.94003,168.119
0.000559,1.92226,9.00402,168.009
0.00056,1.81027,9.06791,167.896
0.000561,1.69857,9.1317,167.779
0.000562,1.58716,9.19538,167.659
0.000563,1.47605,9.25894,167.535
0.000564,1.36525,9.32239,167.407
0.000565,1.25476,9.38573,167.277
0.000566,1.14458,9.44896,167.142
0.000567,1.03473,9.51206,167.004
0.000568,0.925203,9.57505,166.863
0.000569,0.816008,9.63792,166.718
0.00057,0.707152,9.70067,166.57
0.000571,0.59864,9.76329,166.418
0.000572,0.490477,9.82579,166.263
0.000573,0.382669,9.88816,166.104
0.000574,0.275221,9.9504,165.942
0.000575,0.168138,10.0125,165.777
0.000576,0.0614268,10.0745,165.608
0.000577,-0.0449082,10.1363,165.436
0.000578,-0.150861,10.198,165.26
0.000579,-0.256428,10.2596,165.081
0.00058,-0.361601,10.3211,164.899
0.000581,-0.466377,10.3824,164.713
0.000582,-0.57075,10.4435,164.524
0.000583,-0.674714,10.5045,164.331
0.000584,-0.778265,10.5654,164.136
0.000585,-0.881397,10.6261,163.937
0.000586,-0.984105,10.6867,163.734
0.000587,-1.08638,10.7471,163.529
0.000588,-1.18823,10.8074,163.32
0.000589,-1.28963,10.8675,163.107
0.00059,-1.39059,10.9275,162.892
0.000591,-1.49111,10.9873,162.673
0.000592,-1.59116,11.047,162.451
0.000593,-1.69076,11.1065,162.226
0.000594,-1.78989,11.1658,161.997
0.000595,-1.88855,11.225,161.766
0.000596,-1.98674,11.2841,161.531
0.000597,-2.08445,11.3429,161.293
